#, Frequency (Hz), Amplitude (Vpp), Gain (dB), Phase (°)
1,50.0,0.4000,-0.15,-0.93
2,52.1,0.4000,-0.14,-0.97
3,54.3,0.4000,-0.14,-1.03
4,56.5,0.4000,-0.14,-1.05
5,58.9,0.4000,-0.14,-1.15
6,61.4,0.4000,-0.14,-1.20
7,64.0,0.4000,-0.14,-1.26
8,66.6,0.4000,-0.14,-1.33
9,69.4,0.4000,-0.14,-1.37
10,72.3,0.4000,-0.14,-1.48
11,75.4,0.4000,-0.13,-1.50
12,78.5,0.4000,-0.13,-1.60
13,81.8,0.4000,-0.13,-1.67
14,85.2,0.4000,-0.13,-1.79
15,88.8,0.4000,-0.13,-1.89
16,92.5,0.4000,-0.14,-1.96
17,96.4,0.4000,-0.13,-2.11
18,100.4,0.4000,-0.13,-2.20
19,104.6,0.4000,-0.13,-2.29
20,109.0,0.4000,-0.12,-2.41
21,113.6,0.4000,-0.13,-2.51
22,118.3,0.4000,-0.12,-2.60
23,123.3,0.4000,-0.13,-2.75
24,128.4,0.4000,-0.13,-2.86
25,133.8,0.4000,-0.12,-3.02
26,139.4,0.4000,-0.14,-3.15
27,145.3,0.4000,-0.14,-3.27
28,151.3,0.4000,-0.14,-3.40
29,157.7,0.4000,-0.14,-3.56
30,164.3,0.4000,-0.14,-3.71
31,171.2,0.4000,-0.14,-3.85
32,178.3,0.4000,-0.14,-4.07
33,185.8,0.4000,-0.14,-4.24
34,193.6,0.4000,-0.14,-4.41
35,201.7,0.4000,-0.15,-4.58
36,210.1,0.4000,-0.16,-4.75
37,218.9,0.4000,-0.15,-4.99
38,228.1,0.4000,-0.16,-5.20
39,237.6,0.4000,-0.15,-5.47
40,247.6,0.4000,-0.16,-5.61
41,257.9,0.4000,-0.16,-5.90
42,268.7,0.4000,-0.16,-6.09
43,280.0,0.4000,-0.16,-6.35
44,291.7,0.4000,-0.18,-6.61
45,303.9,0.4000,-0.16,-6.93
46,316.7,0.4000,-0.17,-7.16
47,329.9,0.4000,-0.17,-7.53
48,343.7,0.4000,-0.18,-7.77
49,358.1,0.4000,-0.18,-8.14
50,373.1,0.4000,-0.18,-8.43
51,388.7,0.4000,-0.20,-8.79
52,405.0,0.4000,-0.19,-9.19
53,422.0,0.4000,-0.20,-9.59
54,439.7,0.4000,-0.21,-9.96
55,458.1,0.4000,-0.21,-10.35
56,477.2,0.4000,-0.21,-10.81
57,497.2,0.4000,-0.22,-11.25
58,518.0,0.4000,-0.23,-11.74
59,539.7,0.4000,-0.24,-12.16
60,562.3,0.4000,-0.24,-12.72
61,585.9,0.4000,-0.25,-13.24
62,610.4,0.4000,-0.25,-13.75
63,636.0,0.4000,-0.27,-14.33
64,662.6,0.4000,-0.28,-14.95
65,690.3,0.4000,-0.29,-15.58
66,719.2,0.4000,-0.31,-16.22
67,749.4,0.4000,-0.32,-16.92
68,780.7,0.4000,-0.33,-17.63
69,813.4,0.4000,-0.33,-18.42
70,847.5,0.4000,-0.38,-19.09
71,883.0,0.4000,-0.38,-19.97
72,919.9,0.4000,-0.39,-20.78
73,958.5,0.4000,-0.42,-21.61
74,998.6,0.4000,-0.44,-22.61
75,1040.4,0.4000,-0.47,-23.49
76,1084.0,0.4000,-0.49,-24.45
77,1129.4,0.4000,-0.53,-25.48
78,1176.6,0.4000,-0.55,-26.51
79,1225.9,0.4000,-0.59,-27.75
80,1277.2,0.4000,-0.63,-28.79
81,1330.7,0.4000,-0.69,-29.93
82,1386.4,0.4000,-0.73,-31.29
83,1444.5,0.4000,-0.79,-32.50
84,1505.0,0.4000,-0.83,-34.01
85,1568.0,0.4000,-0.88,-35.33
86,1633.6,0.4000,-0.95,-36.86
87,1702.1,0.4000,-1.02,-38.35
88,1773.3,0.4000,-1.10,-39.98
89,1847.6,0.4000,-1.18,-41.67
90,1924.9,0.4000,-1.27,-43.39
91,2005.5,0.4000,-1.37,-45.23
92,2089.5,0.4000,-1.48,-47.01
93,2177.0,0.4000,-1.61,-49.07
94,2268.1,0.4000,-1.73,-51.10
95,2363.1,0.4000,-1.88,-53.26
96,2462.1,0.4000,-2.04,-55.44
97,2565.1,0.4000,-2.20,-57.86
98,2672.6,0.4000,-2.38,-60.26
99,2784.5,0.4000,-2.59,-62.77
100,2901.0,0.4000,-2.81,-65.40
101,3022.5,0.4000,-3.06,-68.15
102,3149.1,0.4000,-3.34,-70.89
103,3280.9,0.4000,-3.64,-73.98
104,3418.3,0.4000,-3.98,-77.12
105,3561.4,0.4000,-4.34,-80.17
106,3710.6,0.4000,-4.74,-83.72
107,3865.9,0.4000,-5.16,-87.02
108,4027.8,0.4000,-5.67,-90.69
109,4196.4,0.4000,-6.22,-94.57
110,4372.1,0.4000,-6.86,-98.40
111,4555.2,0.4000,-7.58,-102.57
112,4745.9,0.4000,-8.40,-106.94
113,4944.7,0.4000,-9.36,-111.28
114,5151.7,0.4000,-10.48,-115.98
115,5367.4,0.4000,-11.79,-120.90
116,5592.1,0.4000,-13.35,-125.90
117,5826.3,0.4000,-15.30,-131.25
118,6070.2,0.4000,-17.86,-136.57
119,6324.4,0.4000,-21.46,-142.37
120,6589.2,0.4000,-27.77,-148.50
121,6865.1,0.4000,-58.06,26.22
122,7152.6,0.4000,-27.52,19.14
123,7452.1,0.4000,-21.83,12.32
124,7764.1,0.4000,-18.61,5.33
125,8089.2,0.4000,-16.52,-2.01
126,8427.9,0.4000,-15.03,-9.63
127,8780.8,0.4000,-14.00,-17.63
128,9148.4,0.4000,-13.29,-25.89
129,9531.5,0.4000,-12.88,-34.50
130,9930.6,0.4000,-12.81,-43.51
131,10346.4,0.4000,-12.98,-52.84
132,10779.6,0.4000,-13.51,-62.57
133,11230.9,0.4000,-14.41,-72.78
134,11701.2,0.4000,-15.85,-83.35
135,12191.1,0.4000,-17.97,-94.50
136,12701.6,0.4000,-21.40,-105.95
137,13233.4,0.4000,-27.96,-118.03
138,13787.5,0.4000,-44.28,51.67
139,14364.8,0.4000,-25.80,36.82
140,14966.3,0.4000,-20.70,23.33
141,15592.9,0.4000,-18.03,9.07
142,16245.8,0.4000,-16.60,-5.54
143,16926.1,0.4000,-16.09,-20.93
144,17634.8,0.4000,-16.48,-36.82
145,18373.2,0.4000,-17.91,-53.47
146,19142.5,0.4000,-20.92,-70.77
147,19944.0,0.4000,-27.79,-89.06
148,20779.1,0.4000,-37.22,72.92
149,21649.1,0.4000,-23.36,52.97
150,22555.6,0.4000,-19.01,32.54
151,23500.0,0.4000,-17.28,14.94
